Element, Terminal, P(kW), Q(kvar),  P_Normal, Q_Normal, P_Emergency, Q_Emergency
"Transformer.COMMONWEALTH_RET_01311205_1",   1,       351.9,        98.5,         0.0,         0.0,         0.0,         0.0
"Transformer.COMMONWEALTH_RET_01311205_1",   2,      -351.9,       -98.4
"Transformer.COMMONWEALTH_RET_01311205_2",   1,       364.3,        94.9,         0.0,         0.0,         0.0,         0.0
"Transformer.COMMONWEALTH_RET_01311205_2",   2,      -364.3,       -94.8
"Transformer.COMMONWEALTH_RET_01311205_3",   1,       293.4,        95.6,         0.0,         0.0,         0.0,         0.0
"Transformer.COMMONWEALTH_RET_01311205_3",   2,      -293.4,       -95.5
"Line.264256886"        ,   1,        -0.0,        -0.3,         0.0,         0.0,         0.0,         0.0
"Line.264256886"        ,   2,         0.0,         0.0
"Line.263962003"        ,   1,         6.9,         1.7,         0.0,         0.0,         0.0,         0.0
"Line.263962003"        ,   2,        -6.9,        -1.7
"Line.260761331"        ,   1,         0.0,        -0.0,         0.0,         0.0,         0.0,         0.0
"Line.260761331"        ,   2,         0.0,         0.0
"Line.264256882"        ,   1,        -0.0,        -0.0,         0.0,         0.0,         0.0,         0.0
"Line.264256882"        ,   2,         0.0,         0.0
"Line.260761151"        ,   1,         1.1,         0.4,         0.0,         0.0,         0.0,         0.0
"Line.260761151"        ,   2,        -1.1,        -0.4
"Line.260761156"        ,   1,        -0.0,        -0.0,         0.0,         0.0,         0.0,         0.0
"Line.260761156"        ,   2,        -0.0,        -0.0
"Line.260761296"        ,   1,         1.4,         0.3,         0.0,         0.0,         0.0,         0.0
"Line.260761296"        ,   2,        -1.4,        -0.4
"Line.260761311"        ,   1,         0.0,        -0.0,         0.0,         0.0,         0.0,         0.0
"Line.260761311"        ,   2,         0.0,         0.0
"Line.260760191"        ,   1,         0.0,        -0.4,         0.0,         0.0,         0.0,         0.0
"Line.260760191"        ,   2,        -0.0,         0.0
"Line.261302049"        ,   1,         4.8,         1.1,         0.0,         0.0,         0.0,         0.0
"Line.261302049"        ,   2,        -4.8,        -1.1
"Line.263530723"        ,   1,         6.8,         1.3,         0.0,         0.0,         0.0,         0.0
"Line.263530723"        ,   2,        -6.8,        -1.6
"Line.260761094"        ,   1,         0.0,        -0.0,         0.0,         0.0,         0.0,         0.0
"Line.260761094"        ,   2,         0.0,         0.0
"Line.261302044"        ,   1,         2.6,         0.6,         0.0,         0.0,         0.0,         0.0
"Line.261302044"        ,   2,        -2.6,        -0.7
"Line.263530682"        ,   1,         2.7,         0.7,         0.0,         0.0,         0.0,         0.0
"Line.263530682"        ,   2,        -2.7,        -0.7
"Line.263530687"        ,   1,         1.8,         0.5,         0.0,         0.0,         0.0,         0.0
"Line.263530687"        ,   2,        -1.8,        -0.5
"Line.260761119"        ,   1,         0.0,        -0.0,         0.0,         0.0,         0.0,         0.0
"Line.260761119"        ,   2,         0.0,         0.0
"Line.264308703"        ,   1,         0.0,        -0.0,         0.0,         0.0,         0.0,         0.0
"Line.264308703"        ,   2,         0.0,         0.0
"Line.617632356"        ,   1,         1.0,         0.2,         0.0,         0.0,         0.0,         0.0
"Line.617632356"        ,   2,        -1.0,        -0.2
"Line.263530700"        ,   1,         1.3,         0.3,         0.0,         0.0,         0.0,         0.0
"Line.263530700"        ,   2,        -1.3,        -0.3
"Line.263997294"        ,   1,         2.5,         0.8,         0.0,         0.0,         0.0,         0.0
"Line.263997294"        ,   2,        -2.5,        -0.8
"Line.617632351"        ,   1,         1.7,         0.4,         0.0,         0.0,         0.0,         0.0
"Line.617632351"        ,   2,        -1.7,        -0.4
"Line.263530705"        ,   1,         0.0,        -0.1,         0.0,         0.0,         0.0,         0.0
"Line.263530705"        ,   2,        -0.0,         0.0
"Line.263997299"        ,   1,        -0.0,        -0.0,         0.0,         0.0,         0.0,         0.0
"Line.263997299"        ,   2,         0.0,         0.0
"Line.263530709"        ,   1,         0.0,        -0.2,         0.0,         0.0,         0.0,         0.0
"Line.263530709"        ,   2,        -0.0,         0.2
"Line.263533203"        ,   1,         3.1,         0.8,         0.0,         0.0,         0.0,         0.0
"Line.263533203"        ,   2,        -3.1,        -0.8
"Line.263533208"        ,   1,         1.3,         0.3,         0.0,         0.0,         0.0,         0.0
"Line.263533208"        ,   2,        -1.3,        -0.3
"Line.617632317"        ,   1,        79.4,        21.3,         0.0,         0.0,         0.0,         0.0
"Line.617632317"        ,   2,       -79.4,       -21.3
"Line.263533122"        ,   1,         1.6,         0.5,         0.0,         0.0,         0.0,         0.0
"Line.263533122"        ,   2,        -1.6,        -0.5
"Line.263533127"        ,   1,         1.2,         0.3,         0.0,         0.0,         0.0,         0.0
"Line.263533127"        ,   2,        -1.2,        -0.4
"Line.263533082"        ,   1,         2.1,         0.6,         0.0,         0.0,         0.0,         0.0
"Line.263533082"        ,   2,        -2.1,        -0.7
"Line.263533001"        ,   1,         5.8,         1.5,         0.0,         0.0,         0.0,         0.0
"Line.263533001"        ,   2,        -5.8,        -1.5
"Line.263533100"        ,   1,         0.0,        -0.0,         0.0,         0.0,         0.0,         0.0
"Line.263533100"        ,   2,        -0.0,        -0.0
"Line.263533104"        ,   1,         1.1,         0.3,         0.0,         0.0,         0.0,         0.0
"Line.263533104"        ,   2,        -1.1,        -0.3
"Line.263533185"        ,   1,         3.9,         1.0,         0.0,         0.0,         0.0,         0.0
"Line.263533185"        ,   2,        -3.9,        -1.0
"Line.263533109"        ,   1,        -0.0,        -0.0,         0.0,         0.0,         0.0,         0.0
"Line.263533109"        ,   2,         0.0,        -0.0
"Line.263857509"        ,   1,         1.0,         0.2,         0.0,         0.0,         0.0,         0.0
"Line.263857509"        ,   2,        -1.0,        -0.2
"Line.263534343"        ,   1,         0.0,        -0.2,         0.0,         0.0,         0.0,         0.0
"Line.263534343"        ,   2,        -0.0,        -0.0
"Line.263534401"        ,   1,         0.4,        -0.3,         0.0,         0.0,         0.0,         0.0
"Line.263534401"        ,   2,        -0.4,         0.3
"Line.263534406"        ,   1,         0.0,        -0.4,         0.0,         0.0,         0.0,         0.0
"Line.263534406"        ,   2,         0.0,         0.3
"Line.263532960"        ,   1,         7.3,         1.7,         0.0,         0.0,         0.0,         0.0
"Line.263532960"        ,   2,        -7.3,        -1.7
"Line.263532965"        ,   1,         3.7,         0.8,         0.0,         0.0,         0.0,         0.0
"Line.263532965"        ,   2,        -3.7,        -0.9
"Line.263532969"        ,   1,         1.5,         0.4,         0.0,         0.0,         0.0,         0.0
"Line.263532969"        ,   2,        -1.5,        -0.4
"Line.264256778"        ,   1,         0.0,        -0.0,         0.0,         0.0,         0.0,         0.0
"Line.264256778"        ,   2,        -0.0,        -0.0
"Line.263532942"        ,   1,         2.8,         0.8,         0.0,         0.0,         0.0,         0.0
"Line.263532942"        ,   2,        -2.8,        -0.8
"Line.263532947"        ,   1,         1.5,         0.4,         0.0,         0.0,         0.0,         0.0
"Line.263532947"        ,   2,        -1.5,        -0.4
"Line.264256756"        ,   1,         0.0,        -0.0,         0.0,         0.0,         0.0,         0.0
"Line.264256756"        ,   2,         0.0,        -0.0
"Line.263904548"        ,   1,         3.0,         0.7,         0.0,         0.0,         0.0,         0.0
"Line.263904548"        ,   2,        -3.0,        -0.7
"Line.264256751"        ,   1,         0.0,        -0.0,         0.0,         0.0,         0.0,         0.0
"Line.264256751"        ,   2,        -0.0,        -0.0
"Line.264256634"        ,   1,         0.0,        -0.2,         0.0,         0.0,         0.0,         0.0
"Line.264256634"        ,   2,        -0.0,         0.0
"Line.263532920"        ,   1,         0.8,         0.2,         0.0,         0.0,         0.0,         0.0
"Line.263532920"        ,   2,        -0.8,        -0.2
"Line.264256630"        ,   1,         0.0,        -0.0,         0.0,         0.0,         0.0,         0.0
"Line.264256630"        ,   2,         0.0,        -0.0
"Line.264256734"        ,   1,        -0.0,        -0.0,         0.0,         0.0,         0.0,         0.0
"Line.264256734"        ,   2,        -0.0,         0.0
"Line.264256733"        ,   1,         0.0,        -0.0,         0.0,         0.0,         0.0,         0.0
"Line.264256733"        ,   2,        -0.0,         0.0
"Line.263532987"        ,   1,         1.5,         0.3,         0.0,         0.0,         0.0,         0.0
"Line.263532987"        ,   2,        -1.5,        -0.3
"Line.633960134"        ,   1,         0.0,        -0.2,         0.0,         0.0,         0.0,         0.0
"Line.633960134"        ,   2,        -0.0,        -0.0
"Line.264331251"        ,   1,         0.0,        -0.0,         0.0,         0.0,         0.0,         0.0
"Line.264331251"        ,   2,         0.0,        -0.0
"Line.260762260"        ,   1,         0.0,        -0.0,         0.0,         0.0,         0.0,         0.0
"Line.260762260"        ,   2,         0.0,         0.0
"Line.260761266"        ,   1,         0.4,         0.0,         0.0,         0.0,         0.0,         0.0
"Line.260761266"        ,   2,        -0.4,        -0.1
"Line.704839766"        ,   1,       160.7,        45.3,         0.0,         0.0,         0.0,         0.0
"Line.704839766"        ,   2,      -160.7,       -45.3
"Line.704839761"        ,   1,       160.7,        45.3,         0.0,         0.0,         0.0,         0.0
"Line.704839761"        ,   2,      -160.7,       -45.3
"Line.260761246"        ,   1,         0.7,         0.2,         0.0,         0.0,         0.0,         0.0
"Line.260761246"        ,   2,        -0.7,        -0.2
"Line.260761346"        ,   1,        -0.0,        -0.0,         0.0,         0.0,         0.0,         0.0
"Line.260761346"        ,   2,         0.0,         0.0
"Line.260761221"        ,   1,         0.5,         0.1,         0.0,         0.0,         0.0,         0.0
"Line.260761221"        ,   2,        -0.5,        -0.1
"Line.260761166"        ,   1,         0.0,        -0.0,         0.0,         0.0,         0.0,         0.0
"Line.260761166"        ,   2,        -0.0,         0.0
"Line.260761226"        ,   1,        -0.0,        -0.0,         0.0,         0.0,         0.0,         0.0
"Line.260761226"        ,   2,         0.0,         0.0
"Line.261245658"        ,   1,         0.0,        -0.0,         0.0,         0.0,         0.0,         0.0
"Line.261245658"        ,   2,        -0.0,        -0.0
"Line.260761281"        ,   1,         0.0,        -0.0,         0.0,         0.0,         0.0,         0.0
"Line.260761281"        ,   2,        -0.0,         0.0
"Line.260761201"        ,   1,         1.1,         0.2,         0.0,         0.0,         0.0,         0.0
"Line.260761201"        ,   2,        -1.1,        -0.3
"Line.261245653"        ,   1,         1.4,         0.3,         0.0,         0.0,         0.0,         0.0
"Line.261245653"        ,   2,        -1.4,        -0.4
"Line.260761206"        ,   1,         0.0,        -0.0,         0.0,         0.0,         0.0,         0.0
"Line.260761206"        ,   2,        -0.0,         0.0
"Line.260761301"        ,   1,         0.0,        -0.0,         0.0,         0.0,         0.0,         0.0
"Line.260761301"        ,   2,         0.0,         0.0
"Line.704839483"        ,   1,         2.7,         0.7,         0.0,         0.0,         0.0,         0.0
"Line.704839483"        ,   2,        -2.7,        -0.8
"Line.260761181"        ,   1,         0.2,         0.0,         0.0,         0.0,         0.0,         0.0
"Line.260761181"        ,   2,        -0.2,        -0.0
"Line.260761186"        ,   1,        -0.0,        -0.0,         0.0,         0.0,         0.0,         0.0
"Line.260761186"        ,   2,         0.0,         0.0
"Line.260761104"        ,   1,         0.0,        -0.0,         0.0,         0.0,         0.0,         0.0
"Line.260761104"        ,   2,        -0.0,         0.0
"Line.261302054"        ,   1,         2.6,         0.6,         0.0,         0.0,         0.0,         0.0
"Line.261302054"        ,   2,        -2.6,        -0.6
"Line.264308690"        ,   1,         0.0,        -0.0,         0.0,         0.0,         0.0,         0.0
"Line.264308690"        ,   2,         0.0,         0.0
"Line.264308694"        ,   1,         0.0,        -0.0,         0.0,         0.0,         0.0,         0.0
"Line.264308694"        ,   2,        -0.0,        -0.0
"Line.263533077"        ,   1,         2.1,         0.6,         0.0,         0.0,         0.0,         0.0
"Line.263533077"        ,   2,        -2.1,        -0.6
"Line.264308712"        ,   1,         0.0,        -0.0,         0.0,         0.0,         0.0,         0.0
"Line.264308712"        ,   2,         0.0,         0.0
"Line.617632322"        ,   1,        79.1,        21.2,         0.0,         0.0,         0.0,         0.0
"Line.617632322"        ,   2,       -79.1,       -21.2
"Line.263533230"        ,   1,         1.1,         0.3,         0.0,         0.0,         0.0,         0.0
"Line.263533230"        ,   2,        -1.1,        -0.3
"Line.263530718"        ,   1,         8.4,         1.8,         0.0,         0.0,         0.0,         0.0
"Line.263530718"        ,   2,        -8.4,        -1.8
"Line.263533235"        ,   1,        -0.0,        -0.0,         0.0,         0.0,         0.0,         0.0
"Line.263533235"        ,   2,         0.0,         0.0
"Line.263533050"        ,   1,         4.3,         1.1,         0.0,         0.0,         0.0,         0.0
"Line.263533050"        ,   2,        -4.3,        -1.1
"Line.263533055"        ,   1,         2.7,         0.7,         0.0,         0.0,         0.0,         0.0
"Line.263533055"        ,   2,        -2.7,        -0.7
"Line.263533217"        ,   1,         2.5,         0.6,         0.0,         0.0,         0.0,         0.0
"Line.263533217"        ,   2,        -2.5,        -0.6
"Line.263533131"        ,   1,         0.6,         0.1,         0.0,         0.0,         0.0,         0.0
"Line.263533131"        ,   2,        -0.6,        -0.1
"Line.263533136"        ,   1,         0.3,         0.0,         0.0,         0.0,         0.0,         0.0
"Line.263533136"        ,   2,        -0.3,        -0.0
"Line.264281558"        ,   1,         0.0,        -0.0,         0.0,         0.0,         0.0,         0.0
"Line.264281558"        ,   2,        -0.0,        -0.0
"Line.263533095"        ,   1,         3.2,         0.9,         0.0,         0.0,         0.0,         0.0
"Line.263533095"        ,   2,        -3.2,        -0.9
"Line.263533113"        ,   1,         1.8,         0.6,         0.0,         0.0,         0.0,         0.0
"Line.263533113"        ,   2,        -1.8,        -0.6
"Line.263533190"        ,   1,         3.2,         0.8,         0.0,         0.0,         0.0,         0.0
"Line.263533190"        ,   2,        -3.2,        -0.9
"Line.263533194"        ,   1,         1.9,         0.4,         0.0,         0.0,         0.0,         0.0
"Line.263533194"        ,   2,        -1.9,        -0.4
"Line.263533118"        ,   1,         1.2,         0.3,         0.0,         0.0,         0.0,         0.0
"Line.263533118"        ,   2,        -1.2,        -0.4
"Line.263533199"        ,   1,         0.0,        -0.0,         0.0,         0.0,         0.0,         0.0
"Line.263533199"        ,   2,        -0.0,         0.0
"Line.263857514"        ,   1,         0.0,        -0.1,         0.0,         0.0,         0.0,         0.0
"Line.263857514"        ,   2,         0.0,         0.0
"Line.264256769"        ,   1,         0.0,        -0.0,         0.0,         0.0,         0.0,         0.0
"Line.264256769"        ,   2,         0.0,         0.0
"Line.264256760"        ,   1,         0.0,        -0.0,         0.0,         0.0,         0.0,         0.0
"Line.264256760"        ,   2,        -0.0,         0.0
"Line.263532974"        ,   1,         0.5,         0.0,         0.0,         0.0,         0.0,         0.0
"Line.263532974"        ,   2,        -0.5,        -0.1
"Line.264256742"        ,   1,         0.0,        -0.0,         0.0,         0.0,         0.0,         0.0
"Line.264256742"        ,   2,        -0.0,         0.0
"Line.263534338"        ,   1,         7.7,         2.1,         0.0,         0.0,         0.0,         0.0
"Line.263534338"        ,   2,        -7.7,        -2.1
"Line.263904553"        ,   1,         1.4,         0.3,         0.0,         0.0,         0.0,         0.0
"Line.263904553"        ,   2,        -1.4,        -0.3
"Line.264256729"        ,   1,        -0.0,        -0.0,         0.0,         0.0,         0.0,         0.0
"Line.264256729"        ,   2,         0.0,         0.0
"Line.264256724"        ,   1,         0.0,        -0.0,         0.0,         0.0,         0.0,         0.0
"Line.264256724"        ,   2,        -0.0,         0.0
"Line.263534392"        ,   1,         4.1,         1.0,         0.0,         0.0,         0.0,         0.0
"Line.263534392"        ,   2,        -4.1,        -1.0
"Line.263534310"        ,   1,         2.4,         0.6,         0.0,         0.0,         0.0,         0.0
"Line.263534310"        ,   2,        -2.4,        -0.7
"Line.264256720"        ,   1,        -0.0,        -0.0,         0.0,         0.0,         0.0,         0.0
"Line.264256720"        ,   2,         0.0,         0.0
"Line.263534397"        ,   1,         0.0,        -0.1,         0.0,         0.0,         0.0,         0.0
"Line.263534397"        ,   2,        -0.0,        -0.0
"Line.263534315"        ,   1,         0.0,        -0.0,         0.0,         0.0,         0.0,         0.0
"Line.263534315"        ,   2,         0.0,        -0.0
"Line.263961998"        ,   1,         6.9,         1.7,         0.0,         0.0,         0.0,         0.0
"Line.263961998"        ,   2,        -6.9,        -1.7
"Line.263532933"        ,   1,         1.6,         0.4,         0.0,         0.0,         0.0,         0.0
"Line.263532933"        ,   2,        -1.6,        -0.4
"Line.263532938"        ,   1,         0.0,        -0.1,         0.0,         0.0,         0.0,         0.0
"Line.263532938"        ,   2,        -0.0,         0.0
"Line.263879215"        ,   1,         0.0,        -0.0,         0.0,         0.0,         0.0,         0.0
"Line.263879215"        ,   2,         0.0,        -0.0
"Line.263879210"        ,   1,         2.2,         0.7,         0.0,         0.0,         0.0,         0.0
"Line.263879210"        ,   2,        -2.2,        -0.7
"Line.263532992"        ,   1,         0.0,        -0.0,         0.0,         0.0,         0.0,         0.0
"Line.263532992"        ,   2,        -0.0,         0.0
"Line.263532996"        ,   1,         8.1,         2.0,         0.0,         0.0,         0.0,         0.0
"Line.263532996"        ,   2,        -8.1,        -2.1
"Line.263532915"        ,   1,         1.3,         0.3,         0.0,         0.0,         0.0,         0.0
